Circuit: * /Users/wilsontr/git/cgs-box/circuits/serge spring reverb.asc

WARNING: Node N009 is floating.

WARNING: Less than two connections to node N009.  This node is used by C8.
Direct Newton iteration failed to find .op point.  (Use ".option noopiter" to skip.)
Starting Gmin stepping
Gmin = 10
Gmin = 1.07374
Gmin = 0.115292
Gmin = 0.0123794
Gmin = 0.00132923
Gmin = 0.000142725
Gmin = 1.5325e-05
Gmin = 1.6455e-06
Gmin = 1.76685e-07
Gmin = 1.89714e-08
Gmin = 2.03704e-09
Gmin = 2.18725e-10
Gmin = 2.34854e-11
Gmin = 2.52173e-12
Gmin = 2.70769e-13
Gmin = 0
Gmin stepping succeeded in finding the operating point.

Semiconductor Device Operating Points:
                        --- Bipolar Transistors ---
Name:     q:x1:7      q:x1:4      q:x1:5      q:x1:6      q:x1:12
Model:    x1:pnp1     x1:pnp1     x1:pnp1     x1:pnp1     x1:npn1
Ib:      -3.91e-14   -4.74e-06   -4.76e-06   -5.29e-06   -2.40e-11
Ic:      -1.36e-13   -2.18e-04   -1.91e-04   -2.12e-04    2.37e-11
Vbe:     -6.29e-02   -6.14e-01   -6.14e-01   -6.17e-01   -3.31e-01
Vbc:      2.08e-02    2.27e+01    0.00e+00   -6.29e-02   -2.37e+01
Vce:     -8.37e-02   -2.34e+01   -6.14e-01   -5.54e-01    2.34e+01
BetaDC:   3.47e+00    4.61e+01    4.00e+01    4.00e+01   -9.86e-01
Gm:       4.23e-12    8.44e-03    7.36e-03    8.18e-03    1.26e-18
Rpi:      9.01e+11    5.46e+03    5.43e+03    4.89e+03    1.00e+12
Rx:       1.00e+02    1.00e+02    1.00e+02    1.00e+02    1.00e+02
Ro:       5.76e+12    7.92e+05    7.87e+05    7.08e+05    5.33e+21
Cbe:      1.03e-12    8.45e-10    7.38e-10    8.20e-10    8.86e-13
Cbc:      9.91e-13    3.21e-13    1.00e-12    1.03e-12    3.17e-13
Cjs:      0.00e+00    0.00e+00    0.00e+00    0.00e+00    0.00e+00
BetaAC:   3.81e+00    4.61e+01    4.00e+01    4.00e+01    1.26e-06
Cbx:      0.00e+00    0.00e+00    0.00e+00    0.00e+00    0.00e+00
Ft:       3.21e-01    1.59e+06    1.59e+06    1.59e+06    1.32e-01

Name:     q:x1:11     q:x1:8      q:x1:1      q:x1:9      q:x1:10
Model:    x1:npn1     x1:npn1     x1:npn1     x1:npn1     x1:npn1
Ib:      -2.31e-11    1.28e-06    8.54e-14    2.24e-05    1.31e-06
Ic:       8.79e-11    1.76e-04    2.44e-13    4.38e-04    2.25e-04
Vbe:      2.23e-01    6.13e-01    8.37e-02    5.69e-01    5.54e-01
Vbc:     -2.37e+01    0.00e+00    0.00e+00    4.85e-01   -2.34e+01
Vce:      2.39e+01    6.13e-01    8.37e-02    8.37e-02    2.39e+01
BetaDC:  -3.80e+00    1.38e+02    2.86e+00    1.95e+01    1.72e+02
Gm:       2.48e-09    6.30e-03    9.46e-12    1.74e-02    8.63e-03
Rpi:      6.54e+10    2.02e+04    9.38e+11    7.98e+03    1.97e+04
Rx:       1.00e+02    1.00e+02    1.00e+02    7.14e+00    1.00e+01
Ro:       2.71e+12    8.51e+05    2.58e+12    1.37e+03    7.69e+05
Cbe:      1.12e-12    7.82e-12    1.04e-12    3.87e-11    2.32e-11
Cbc:      3.17e-13    1.00e-12    1.00e-12    1.93e-11    3.18e-12
Cjs:      0.00e+00    0.00e+00    0.00e+00    0.00e+00    0.00e+00
BetaAC:   1.62e+02    1.27e+02    8.88e+00    1.39e+02    1.70e+02
Cbx:      0.00e+00    0.00e+00    0.00e+00    0.00e+00    0.00e+00
Ft:       2.74e+02    1.14e+08    7.34e-01    4.77e+07    5.21e+07

Name:     q:x1:3      q:x1:2      q:x3:7      q:x3:4      q:x3:5
Model:    x1:npn1     x1:npn1     x3:pnp1     x3:pnp1     x3:pnp1
Ib:       1.35e-04   -4.78e-13    1.19e-12   -4.74e-06   -4.76e-06
Ic:       5.29e-06    8.19e-13   -1.23e-12   -2.17e-04   -1.90e-04
Vbe:      6.37e-01    8.37e-02   -1.80e-02   -6.14e-01   -6.14e-01
Vbc:      6.16e-01   -5.54e-01    1.20e+00    2.16e+01    0.00e+00
Vce:      2.08e-02    6.37e-01   -1.21e+00   -2.22e+01   -6.14e-01
BetaDC:   3.92e-02   -1.71e+00   -1.03e+00    4.58e+01    4.00e+01
Gm:       4.80e-03    9.89e-12    7.81e-13    8.38e-03    7.36e-03
Rpi:      1.34e+04    9.38e+11    9.81e+11    5.46e+03    5.43e+03
Rx:       1.00e+02    1.00e+02    1.00e+02    1.00e+02    1.00e+02
Ro:       2.20e+02    5.89e+14    7.49e+15    7.91e+05    7.87e+05
Cbe:      1.04e-11    1.04e-12    1.01e-12    8.40e-10    7.38e-10
Cbc:      1.51e-12    8.33e-13    7.30e-13    3.26e-13    1.00e-12
Cjs:      0.00e+00    0.00e+00    0.00e+00    0.00e+00    0.00e+00
BetaAC:   6.43e+01    9.28e+00    7.66e-01    4.57e+01    4.00e+01
Cbx:      0.00e+00    0.00e+00    0.00e+00    0.00e+00    0.00e+00
Ft:       6.41e+07    8.35e-01    6.00e-02    1.59e+06    1.59e+06

Name:     q:x3:6      q:x3:12     q:x3:11     q:x3:8      q:x3:1
Model:    x3:pnp1     x3:npn1     x3:npn1     x3:npn1     x3:npn1
Ib:      -5.12e-06   -2.39e-11   -2.35e-11    1.38e-06    1.84e-13
Ic:      -2.05e-04    2.37e-11    2.77e-11    1.89e-04    4.20e-12
Vbe:     -6.16e-01   -2.11e-01    1.51e-01    6.15e-01    1.56e-01
Vbc:     -1.80e-02   -2.37e+01   -2.37e+01    0.00e+00    0.00e+00
Vce:     -5.98e-01    2.35e+01    2.38e+01    6.15e-01    1.56e-01
BetaDC:   4.00e+01   -9.91e-01   -1.18e+00    1.37e+02    2.28e+01
Gm:       7.91e-03    1.29e-16    1.56e-10    6.73e-03    1.63e-10
Rpi:      5.06e+03    1.00e+12    5.27e+11    1.87e+04    4.79e+11
Rx:       1.00e+02    1.00e+02    1.00e+02    1.00e+02    1.00e+02
Ro:       7.33e+05    5.22e+19    4.31e+13    7.93e+05    2.41e+12
Cbe:      7.93e-10    9.21e-13    1.08e-12    8.25e-12    1.08e-12
Cbc:      1.01e-12    3.17e-13    3.17e-13    1.00e-12    1.00e-12
Cjs:      0.00e+00    0.00e+00    0.00e+00    0.00e+00    0.00e+00
BetaAC:   4.00e+01    1.29e-04    8.21e+01    1.26e+02    7.80e+01
Cbx:      0.00e+00    0.00e+00    0.00e+00    0.00e+00    0.00e+00
Ft:       1.59e+06    1.29e-01    1.78e+01    1.16e+08    1.25e+01

Name:     q:x3:9      q:x3:10     q:x3:3      q:x3:2        q2
Model:    x3:npn1     x3:npn1     x3:npn1     x3:npn1     2n4249
Ib:       9.48e-06    7.05e-06    3.40e-08   -1.88e-13   -7.30e-07
Ic:       1.36e-03    1.16e-03    5.12e-06    4.59e-12   -1.35e-04
Vbe:      5.97e-01    5.98e-01    5.19e-01    1.56e-01   -6.10e-01
Vbc:     -6.18e-01   -2.22e+01   -6.78e-01   -3.62e-01    9.18e+00
Vce:      1.21e+00    2.28e+01    1.20e+00    5.19e-01   -9.79e+00
BetaDC:   1.44e+02    1.64e+02    1.50e+02   -2.45e+01    1.85e+02
Gm:       5.03e-02    4.27e-02    1.97e-04    1.64e-10    5.21e-03
Rpi:      2.73e+03    3.67e+03    7.60e+05    4.79e+11    3.56e+04
Rx:       7.14e+00    1.00e+01    1.00e+02    1.00e+02    1.00e+01
Ro:       1.11e+05    1.49e+05    2.94e+07    3.55e+13    3.93e+05
Cbe:      7.13e-11    5.77e-11    1.61e-12    1.08e-12    1.39e-11
Cbc:      1.15e-11    3.23e-12    8.09e-13    8.78e-13    2.05e-12
Cjs:      0.00e+00    0.00e+00    0.00e+00    0.00e+00    0.00e+00
BetaAC:   1.37e+02    1.56e+02    1.50e+02    7.83e+01    1.85e+02
Cbx:      0.00e+00    0.00e+00    0.00e+00    0.00e+00    6.84e-13
Ft:       9.67e+07    1.11e+08    1.30e+07    1.33e+01    4.99e+07

Name:       q1
Model:    2n3565
Ib:       6.28e-06
Ic:       2.37e-03
Vbe:      6.93e-01
Vbc:     -8.18e+00
Vce:      8.87e+00
BetaDC:   3.77e+02
Gm:       8.06e-02
Rpi:      4.63e+03
Rx:       1.00e+01
Ro:       2.90e+04
Cbe:      7.59e-11
Cbc:      1.32e-12
Cjs:      0.00e+00
BetaAC:   3.73e+02
Cbx:      4.39e-13
Ft:       1.65e+08


Operating Bias Point Solution:
          V(v+)                 12   voltage
          V(v-)                -12   voltage
        V(n007)                  0   voltage
        V(p001)           -11.4813   voltage
        V(n008)           -11.4813   voltage
        V(n011)           -11.4779   voltage
        V(n005)           -2.60452   voltage
        V(p002)           -10.7852   voltage
        V(n006)           -2.18291   voltage
        V(n010)           -11.3627   voltage
        V(n001)           -1.57315   voltage
        V(n004)           -11.9163   voltage
        V(n002)           -11.9163   voltage
        V(n003)           -11.9163   voltage
        V(n009)       -0.000262152   voltage
       V(nc_01)           -11.8436   voltage
         Ic(Q2)       -0.000135001   device_current
         Ib(Q2)       -7.30329e-07   device_current
         Ie(Q2)        0.000135732   device_current
         Ic(Q1)         0.00236674   device_current
         Ib(Q1)        6.27951e-06   device_current
         Ie(Q1)        -0.00237302   device_current
          I(C8)       -2.62152e-16   device_current
          I(C7)       -3.06158e-28   device_current
          I(C6)       -3.46094e-17   device_current
          I(C5)       -4.80239e-21   device_current
          I(C4)       -2.60452e-20   device_current
          I(C3)        3.40487e-26   device_current
          I(C2)       -1.14813e-19   device_current
          I(C1)           -1.2e-19   device_current
          I(L1)       -0.000219021   device_current
          I(R9)        6.49261e-11   device_current
          I(R8)       -6.49258e-11   device_current
          I(R7)        0.000135732   device_current
          I(R6)       -0.000218291   device_current
          I(R5)         0.00214772   device_current
          I(R4)         0.00237299   device_current
          I(R3)        3.40487e-08   device_current
          I(R2)                  0   device_current
          I(R1)                  0   device_current
          I(V3)       -1.14813e-19   device_current
          I(V2)         0.00471852   device_current
          I(V1)        -0.00450022   device_current
     Ix(x3:IN+)        3.55271e-17   subckt_current
     Ix(x3:IN-)        3.40487e-08   subckt_current
     Ix(x3:VCC)         0.00157304   subckt_current
     Ix(x3:VSS)         -0.0015668   subckt_current
     Ix(x3:OUT)       -6.27951e-06   subckt_current
     Ix(x1:IN+)       -6.49258e-11   subckt_current
     Ix(x1:IN-)        0.000135001   subckt_current
     Ix(x1:VCC)        0.000643727   subckt_current
     Ix(x1:VSS)       -0.000778728   subckt_current
     Ix(x1:OUT)        6.49374e-11   subckt_current


Date: Sun Aug  2 18:34:41 2015
Total elapsed time: 0.105 seconds.

tnom = 27
temp = 27
method = trap
totiter = 526
traniter = 0
tranpoints = 0
accept = 0
rejected = 0
matrix size = 89
fillins = 48
solver = Normal
Thread vector: 12.3/10.6[2] 0.0/0.0[0] 3.5/5.5[1] 0.8/3.9[1]  2592/500
Matrix Compiler1: 10000 object code size
Matrix Compiler2:     741 opcodes

